
T19588 000:626 SEGGER J-Link V4.90 Log File (0002ms, 0270ms total)
T19588 000:626 DLL Compiled: Jul 28 2014 10:35:20 (0002ms, 0270ms total)
T19588 000:626 Logging started @ 2018-08-02 10:19 (0002ms, 0270ms total)
T19588 000:628 JLINK_SetWarnOutHandler(...) (0000ms, 0270ms total)
T19588 000:628 JLINK_OpenEx(...)
Firmware: J-Link ARM-OB STM32 compiled Aug 22 2012 19:52:04
Hardware: V7.00
S/N: 20090928
Feature(s): RDI,FlashDL,FlashBP,JFlash,GDBFull  returns O.K. (0267ms, 0537ms total)
T19588 000:895 JLINK_GetEmuCaps()  returns 0x88EA5833 (0000ms, 0537ms total)
T19588 000:895 JLINK_TIF_GetAvailable(...) (0000ms, 0537ms total)
T19588 000:895 JLINK_SetErrorOutHandler(...) (0000ms, 0537ms total)
T19588 000:895 JLINK_ExecCommand("ProjectFile = "D:\STM32\KeilProjects\MeasureDistance\USER\JLinkSettings.ini"", ...)  returns 0x00 (0001ms, 0538ms total)
T19588 000:898 JLINK_ExecCommand("Device = STM32F103ZE", ...)Device "STM32F103ZE" selected (512 KB flash, 64 KB RAM).  returns 0x00 (0003ms, 0541ms total)
T19588 000:901 JLINK_ExecCommand("DisableConnectionTimeout", ...)  returns 0x01 (0000ms, 0541ms total)
T19588 000:901 JLINK_GetHardwareVersion()  returns 0x11170 (0000ms, 0541ms total)
T19588 000:901 JLINK_GetDLLVersion()  returns 49000 (0000ms, 0541ms total)
T19588 000:901 JLINK_GetFirmwareString(...) (0000ms, 0541ms total)
T19588 000:923 JLINK_GetDLLVersion()  returns 49000 (0000ms, 0541ms total)
T19588 000:923 JLINK_GetCompileDateTime() (0000ms, 0541ms total)
T19588 000:926 JLINK_GetFirmwareString(...) (0000ms, 0542ms total)
T19588 000:929 JLINK_GetHardwareVersion()  returns 0x11170 (0000ms, 0542ms total)
T19588 000:942 JLINK_TIF_Select(JLINKARM_TIF_SWD)  returns 0x00 (0000ms, 0542ms total)
T19588 000:942 JLINK_SetSpeed(5000) (0001ms, 0543ms total)
T19588 000:943 JLINK_GetId() >0x108 TIF>Found SWD-DP with ID 0x1BA01477 >0x0D TIF> >0x28 TIF> >0x0D TIF> >0x28 TIF> >0x0D TIF> >0x21 TIF> >0x0D TIF> >0x28 TIF> >0x0D TIF> >0x28 TIF> >0x0D TIF> >0x28 TIF> >0x0D TIF> >0x21 TIF> >0x0D TIF> >0x21 TIF> >0x0D TIF> >0x28 TIF> >0x0D TIF> >0x21 TIF> >0x0D TIF> >0x21 TIF> >0x108 TIF>Found SWD-DP with ID 0x1BA01477 >0x0D TIF> >0x21 TIF> >0x0D TIF> >0x28 TIF> >0x0D TIF> >0x28 TIF> >0x0D TIF> >0x21 TIF> >0x0D TIF> >0x28 TIF> >0x0D TIF> >0x21 TIF> >0x0D TIF>
 >0x21 TIF> >0x0D TIF> >0x21 TIF> >0x0D TIF> >0x21 TIF> >0x0D TIF> >0x28 TIF> >0x0D TIF> >0x28 TIF> >0x0D TIF> >0x21 TIF> >0x0D TIF> >0x28 TIF> >0x0D TIF> >0x28 TIF> >0x0D TIF> >0x28 TIF> >0x0D TIF> >0x21 TIF> >0x0D TIF> >0x21 TIF> >0x0D TIF> >0x28 TIF> >0x0D TIF> >0x21 TIF> >0x0D TIF> >0x21 TIF>Found Cortex-M3 r1p1, Little endian. -- CPU_WriteMem(4 bytes @ 0xE0002000) -- CPU_ReadMem(4 bytes @ 0xE000EDF0) -- CPU_ReadMem(4 bytes @ 0xE0002000)FPUnit: 6 code (BP) slots and 2 literal slots
 -- CPU_ReadMem(4 bytes @ 0xE000EDFC) -- CPU_ReadMem(4 bytes @ 0xE0001000) -- CPU_WriteMem(4 bytes @ 0xE0001000) -- CPU_ReadMem(4 bytes @ 0xE00FF010)TPIU fitted. -- CPU_ReadMem(4 bytes @ 0xE00FF014)ETM fitted. -- CPU_ReadMem(4 bytes @ 0xE00FF018) >0x0D TIF> >0x21 TIF>  returns 0x1BA01477 (0054ms, 0597ms total)
T19588 000:997 JLINK_GetDLLVersion()  returns 49000 (0000ms, 0597ms total)
T19588 000:997 JLINK_CORE_GetFound()  returns 0x30000FF (0000ms, 0597ms total)
T19588 000:999 JLINK_GetDebugInfo(0x100) -- Value=0xE00FF003  returns 0x00 (0000ms, 0597ms total)
T19588 000:999 JLINK_GetDebugInfo(0x101)  returns 0xFFFFFFFF (0000ms, 0597ms total)
T19588 000:999 JLINK_ReadMemEx(0xE0041FF0, 0x0010 Bytes, ..., AccessWidth = 33554436) -- CPU is running -- CPU_ReadMem(16 bytes @ 0xE0041FF0) - Data: 0D 00 00 00 90 00 00 00 05 00 00 00 B1 00 00 00  returns 0x10 (0001ms, 0598ms total)
T19588 001:000 JLINK_GetDebugInfo(0x102)  returns 0xFFFFFFFF (0000ms, 0598ms total)
T19588 001:000 JLINK_GetDebugInfo(0x103)  returns 0xFFFFFFFF (0000ms, 0598ms total)
T19588 001:000 JLINK_ReadMemEx(0xE0040FF0, 0x0010 Bytes, ..., AccessWidth = 33554436) -- CPU is running -- CPU_ReadMem(16 bytes @ 0xE0040FF0) - Data: 0D 00 00 00 90 00 00 00 05 00 00 00 B1 00 00 00  returns 0x10 (0001ms, 0599ms total)
T19588 001:001 JLINK_GetDebugInfo(0x104)  returns 0xFFFFFFFF (0001ms, 0600ms total)
T19588 001:002 JLINK_GetDebugInfo(0x105)  returns 0xFFFFFFFF (0000ms, 0600ms total)
T19588 001:002 JLINK_GetDebugInfo(0x106)  returns 0xFFFFFFFF (0000ms, 0600ms total)
T19588 001:002 JLINK_GetDebugInfo(0x107)  returns 0xFFFFFFFF (0000ms, 0600ms total)
T19588 001:002 JLINK_GetDebugInfo(0x10C)  returns 0xFFFFFFFF (0000ms, 0600ms total)
T19588 001:002 JLINK_ReadMemU32(0xE000ED00, 0x0001 Items, ...) -- CPU is running -- CPU_ReadMem(4 bytes @ 0xE000ED00) - Data: 31 C2 1F 41  returns 0x01 (0001ms, 0601ms total)
T19588 001:003 JLINK_GetDebugInfo(0x10F)  returns 0xFFFFFFFF (0000ms, 0601ms total)
T19588 001:003 JLINK_SetResetType(JLINKARM_RESET_TYPE_NORMAL)  returns JLINKARM_RESET_TYPE_NORMAL (0000ms, 0601ms total)
T19588 001:003 JLINK_Reset() -- CPU is running -- CPU_WriteMem(4 bytes @ 0xE000EDF0) -- CPU is running -- CPU_WriteMem(4 bytes @ 0xE000EDFC) >0x35 TIF> -- CPU is running -- CPU_WriteMem(4 bytes @ 0xE000ED0C) -- CPU is running -- CPU_ReadMem(4 bytes @ 0xE000EDF0) -- CPU is running -- CPU_ReadMem(4 bytes @ 0xE000EDF0) -- CPU is running -- CPU_WriteMem(4 bytes @ 0xE000EDF0) -- CPU is running -- CPU_WriteMem(4 bytes @ 0xE000EDFC) -- CPU is running -- CPU_ReadMem(4 bytes @ 0xE000EDF0)
 -- CPU_WriteMem(4 bytes @ 0xE0002000) -- CPU_ReadMem(4 bytes @ 0xE000EDFC) -- CPU_ReadMem(4 bytes @ 0xE0001000) (0021ms, 0622ms total)
T19588 001:024 JLINK_Halt()  returns 0x00 (0000ms, 0622ms total)
T19588 001:024 JLINK_ReadMemU32(0xE000EDF0, 0x0001 Items, ...) -- CPU_ReadMem(4 bytes @ 0xE000EDF0) - Data: 03 00 03 00  returns 0x01 (0000ms, 0622ms total)
T19588 001:024 JLINK_WriteU32(0xE000EDF0, 0xA05F0003) -- CPU_WriteMem(4 bytes @ 0xE000EDF0)  returns 0x00 (0001ms, 0623ms total)
T19588 001:025 JLINK_WriteU32(0xE000EDFC, 0x01000000) -- CPU_WriteMem(4 bytes @ 0xE000EDFC)  returns 0x00 (0000ms, 0623ms total)
T19588 001:034 JLINK_GetHWStatus(...)  returns 0x00 (0001ms, 0624ms total)
T19588 001:043 JLINK_GetNumBPUnits(Type = 0xFFFFFF00)  returns 0x06 (0000ms, 0624ms total)
T19588 001:043 JLINK_GetNumBPUnits(Type = 0xF0)  returns 0x2000 (0000ms, 0624ms total)
T19588 001:043 JLINK_GetNumWPUnits()  returns 0x04 (0000ms, 0624ms total)
T19588 001:048 JLINK_GetSpeed()  returns 0xFA0 (0000ms, 0624ms total)
T19588 001:052 JLINK_ReadMemU32(0xE000E004, 0x0001 Items, ...) -- CPU_ReadMem(4 bytes @ 0xE000E004) - Data: 01 00 00 00  returns 0x01 (0001ms, 0625ms total)
T19588 001:053 JLINK_ReadMemU32(0xE000E004, 0x0001 Items, ...) -- CPU_ReadMem(4 bytes @ 0xE000E004) - Data: 01 00 00 00  returns 0x01 (0000ms, 0625ms total)
T19588 001:053 JLINK_WriteMemEx(0xE0001000, 0x001C Bytes, ..., AccessWidth = 33554436) - Data: 01 00 00 00 00 00 00 00 00 00 00 00 00 00 00 00 ... -- CPU_WriteMem(28 bytes @ 0xE0001000)  returns 0x1C (0001ms, 0626ms total)
T19588 001:054 JLINK_Halt()  returns 0x00 (0000ms, 0626ms total)
T19588 001:054 JLINK_IsHalted()  returns TRUE (0000ms, 0626ms total)
T19588 001:058 JLINK_WriteMem(0x20000000, 0x0164 Bytes, ...) - Data: 00 BE 0A E0 0D 78 2D 06 68 40 08 24 40 00 00 D3 ... -- CPU_WriteMem(356 bytes @ 0x20000000)  returns 0x164 (0005ms, 0631ms total)
T19588 001:063 JLINK_WriteReg(R0, 0x08000000)  returns 0x00 (0000ms, 0631ms total)
T19588 001:063 JLINK_WriteReg(R1, 0x007A1200)  returns 0x00 (0000ms, 0631ms total)
T19588 001:063 JLINK_WriteReg(R2, 0x00000001)  returns 0x00 (0000ms, 0631ms total)
T19588 001:063 JLINK_WriteReg(R3, 0x00000000)  returns 0x00 (0000ms, 0631ms total)
T19588 001:063 JLINK_WriteReg(R4, 0x00000000)  returns 0x00 (0000ms, 0631ms total)
T19588 001:063 JLINK_WriteReg(R5, 0x00000000)  returns 0x00 (0000ms, 0631ms total)
T19588 001:063 JLINK_WriteReg(R6, 0x00000000)  returns 0x00 (0000ms, 0631ms total)
T19588 001:063 JLINK_WriteReg(R7, 0x00000000)  returns 0x00 (0000ms, 0631ms total)
T19588 001:063 JLINK_WriteReg(R8, 0x00000000)  returns 0x00 (0000ms, 0631ms total)
T19588 001:063 JLINK_WriteReg(R9, 0x20000160)  returns 0x00 (0000ms, 0631ms total)
T19588 001:063 JLINK_WriteReg(R10, 0x00000000)  returns 0x00 (0000ms, 0631ms total)
T19588 001:063 JLINK_WriteReg(R11, 0x00000000)  returns 0x00 (0000ms, 0631ms total)
T19588 001:063 JLINK_WriteReg(R12, 0x00000000)  returns 0x00 (0000ms, 0631ms total)
T19588 001:063 JLINK_WriteReg(R13 (SP), 0x20001000)  returns 0x00 (0000ms, 0631ms total)
T19588 001:063 JLINK_WriteReg(R14, 0x20000001)  returns 0x00 (0000ms, 0631ms total)
T19588 001:063 JLINK_WriteReg(R15 (PC), 0x20000038)  returns 0x00 (0000ms, 0631ms total)
T19588 001:063 JLINK_WriteReg(XPSR, 0x01000000)  returns 0x00 (0000ms, 0631ms total)
T19588 001:063 JLINK_WriteReg(MSP, 0x20001000)  returns 0x00 (0000ms, 0631ms total)
T19588 001:063 JLINK_WriteReg(PSP, 0x20001000)  returns 0x00 (0000ms, 0631ms total)
T19588 001:063 JLINK_WriteReg(CFBP, 0x00000000)  returns 0x00 (0000ms, 0631ms total)
T19588 001:063 JLINK_SetBPEx(Addr = 0x20000000, Type = 0xFFFFFFF2) -- CPU_ReadMem(2 bytes @ 0x20000000)  returns 0x00000001 (0001ms, 0632ms total)
T19588 001:064 JLINK_Go() -- CPU_WriteMem(2 bytes @ 0x20000000) -- CPU_WriteMem(4 bytes @ 0xE0002008) -- CPU_WriteMem(4 bytes @ 0xE000200C) -- CPU_WriteMem(4 bytes @ 0xE0002010) -- CPU_WriteMem(4 bytes @ 0xE0002014) -- CPU_WriteMem(4 bytes @ 0xE0002018) -- CPU_WriteMem(4 bytes @ 0xE000201C) -- CPU_WriteMem(4 bytes @ 0xE0001004) (0008ms, 0640ms total)
T19588 001:072 JLINK_IsHalted() -- CPU_ReadMem(2 bytes @ 0x20000000)  returns TRUE (0004ms, 0644ms total)
T19588 001:076 JLINK_ReadReg(R15 (PC))  returns 0x20000000 (0000ms, 0640ms total)
T19588 001:076 JLINK_ClrBPEx(BPHandle = 0x00000001)  returns 0x00 (0000ms, 0640ms total)
T19588 001:076 JLINK_ReadReg(R0)  returns 0x00000000 (0000ms, 0640ms total)
T19588 001:077 JLINK_WriteReg(R0, 0x08000000)  returns 0x00 (0000ms, 0640ms total)
T19588 001:077 JLINK_WriteReg(R1, 0x00000800)  returns 0x00 (0000ms, 0640ms total)
T19588 001:077 JLINK_WriteReg(R2, 0x000000FF)  returns 0x00 (0000ms, 0640ms total)
T19588 001:077 JLINK_WriteReg(R3, 0x00000000)  returns 0x00 (0000ms, 0640ms total)
T19588 001:077 JLINK_WriteReg(R4, 0x00000000)  returns 0x00 (0000ms, 0640ms total)
T19588 001:077 JLINK_WriteReg(R5, 0x00000000)  returns 0x00 (0000ms, 0640ms total)
T19588 001:077 JLINK_WriteReg(R6, 0x00000000)  returns 0x00 (0000ms, 0640ms total)
T19588 001:077 JLINK_WriteReg(R7, 0x00000000)  returns 0x00 (0000ms, 0640ms total)
T19588 001:077 JLINK_WriteReg(R8, 0x00000000)  returns 0x00 (0000ms, 0640ms total)
T19588 001:077 JLINK_WriteReg(R9, 0x20000160)  returns 0x00 (0000ms, 0640ms total)
T19588 001:077 JLINK_WriteReg(R10, 0x00000000)  returns 0x00 (0000ms, 0640ms total)
T19588 001:077 JLINK_WriteReg(R11, 0x00000000)  returns 0x00 (0000ms, 0640ms total)
T19588 001:077 JLINK_WriteReg(R12, 0x00000000)  returns 0x00 (0000ms, 0640ms total)
T19588 001:077 JLINK_WriteReg(R13 (SP), 0x20001000)  returns 0x00 (0000ms, 0640ms total)
T19588 001:077 JLINK_WriteReg(R14, 0x20000001)  returns 0x00 (0000ms, 0640ms total)
T19588 001:077 JLINK_WriteReg(R15 (PC), 0x20000020)  returns 0x00 (0000ms, 0640ms total)
T19588 001:077 JLINK_WriteReg(XPSR, 0x01000000)  returns 0x00 (0000ms, 0640ms total)
T19588 001:077 JLINK_WriteReg(MSP, 0x20001000)  returns 0x00 (0000ms, 0640ms total)
T19588 001:077 JLINK_WriteReg(PSP, 0x20001000)  returns 0x00 (0000ms, 0640ms total)
T19588 001:077 JLINK_WriteReg(CFBP, 0x00000000)  returns 0x00 (0000ms, 0640ms total)
T19588 001:077 JLINK_SetBPEx(Addr = 0x20000000, Type = 0xFFFFFFF2)  returns 0x00000002 (0000ms, 0640ms total)
T19588 001:077 JLINK_Go() (0002ms, 0642ms total)
T19588 001:079 JLINK_IsHalted() -- CPU_ReadMem(2 bytes @ 0x20000000)  returns TRUE (0005ms, 0647ms total)
T19588 001:084 JLINK_ReadReg(R15 (PC))  returns 0x20000000 (0000ms, 0642ms total)
T19588 001:084 JLINK_ClrBPEx(BPHandle = 0x00000002)  returns 0x00 (0000ms, 0642ms total)
T19588 001:084 JLINK_ReadReg(R0)  returns 0x00000001 (0000ms, 0642ms total)
T19588 001:084 JLINK_WriteReg(R0, 0x08000000)  returns 0x00 (0000ms, 0642ms total)
T19588 001:084 JLINK_WriteReg(R1, 0x00000800)  returns 0x00 (0000ms, 0642ms total)
T19588 001:084 JLINK_WriteReg(R2, 0x000000FF)  returns 0x00 (0000ms, 0642ms total)
T19588 001:084 JLINK_WriteReg(R3, 0x00000000)  returns 0x00 (0000ms, 0642ms total)
T19588 001:084 JLINK_WriteReg(R4, 0x00000000)  returns 0x00 (0000ms, 0642ms total)
T19588 001:084 JLINK_WriteReg(R5, 0x00000000)  returns 0x00 (0000ms, 0642ms total)
T19588 001:084 JLINK_WriteReg(R6, 0x00000000)  returns 0x00 (0000ms, 0642ms total)
T19588 001:084 JLINK_WriteReg(R7, 0x00000000)  returns 0x00 (0000ms, 0642ms total)
T19588 001:084 JLINK_WriteReg(R8, 0x00000000)  returns 0x00 (0000ms, 0642ms total)
T19588 001:084 JLINK_WriteReg(R9, 0x20000160)  returns 0x00 (0000ms, 0642ms total)
T19588 001:084 JLINK_WriteReg(R10, 0x00000000)  returns 0x00 (0000ms, 0642ms total)
T19588 001:084 JLINK_WriteReg(R11, 0x00000000)  returns 0x00 (0000ms, 0642ms total)
T19588 001:084 JLINK_WriteReg(R12, 0x00000000)  returns 0x00 (0000ms, 0642ms total)
T19588 001:084 JLINK_WriteReg(R13 (SP), 0x20001000)  returns 0x00 (0000ms, 0642ms total)
T19588 001:084 JLINK_WriteReg(R14, 0x20000001)  returns 0x00 (0000ms, 0642ms total)
T19588 001:084 JLINK_WriteReg(R15 (PC), 0x200000B6)  returns 0x00 (0000ms, 0642ms total)
T19588 001:084 JLINK_WriteReg(XPSR, 0x01000000)  returns 0x00 (0000ms, 0642ms total)
T19588 001:084 JLINK_WriteReg(MSP, 0x20001000)  returns 0x00 (0000ms, 0642ms total)
T19588 001:084 JLINK_WriteReg(PSP, 0x20001000)  returns 0x00 (0000ms, 0642ms total)
T19588 001:084 JLINK_WriteReg(CFBP, 0x00000000)  returns 0x00 (0000ms, 0642ms total)
T19588 001:084 JLINK_SetBPEx(Addr = 0x20000000, Type = 0xFFFFFFF2)  returns 0x00000003 (0000ms, 0642ms total)
T19588 001:084 JLINK_Go() (0002ms, 0644ms total)
T19588 001:086 JLINK_IsHalted()  returns FALSE (0001ms, 0645ms total)
T19588 001:142 JLINK_IsHalted() -- CPU_ReadMem(2 bytes @ 0x20000000)  returns TRUE (0004ms, 0648ms total)
T19588 001:146 JLINK_ReadReg(R15 (PC))  returns 0x20000000 (0000ms, 0644ms total)
T19588 001:146 JLINK_ClrBPEx(BPHandle = 0x00000003)  returns 0x00 (0000ms, 0644ms total)
T19588 001:146 JLINK_ReadReg(R0)  returns 0x00000000 (0000ms, 0644ms total)
T19588 001:146 JLINK_WriteReg(R0, 0x08000800)  returns 0x00 (0000ms, 0644ms total)
T19588 001:147 JLINK_WriteReg(R1, 0x00000800)  returns 0x00 (0000ms, 0645ms total)
T19588 001:147 JLINK_WriteReg(R2, 0x000000FF)  returns 0x00 (0000ms, 0645ms total)
T19588 001:147 JLINK_WriteReg(R3, 0x00000000)  returns 0x00 (0000ms, 0645ms total)
T19588 001:147 JLINK_WriteReg(R4, 0x00000000)  returns 0x00 (0000ms, 0645ms total)
T19588 001:147 JLINK_WriteReg(R5, 0x00000000)  returns 0x00 (0000ms, 0645ms total)
T19588 001:147 JLINK_WriteReg(R6, 0x00000000)  returns 0x00 (0000ms, 0645ms total)
T19588 001:147 JLINK_WriteReg(R7, 0x00000000)  returns 0x00 (0000ms, 0645ms total)
T19588 001:147 JLINK_WriteReg(R8, 0x00000000)  returns 0x00 (0000ms, 0645ms total)
T19588 001:147 JLINK_WriteReg(R9, 0x20000160)  returns 0x00 (0000ms, 0645ms total)
T19588 001:147 JLINK_WriteReg(R10, 0x00000000)  returns 0x00 (0000ms, 0645ms total)
T19588 001:147 JLINK_WriteReg(R11, 0x00000000)  returns 0x00 (0000ms, 0645ms total)
T19588 001:147 JLINK_WriteReg(R12, 0x00000000)  returns 0x00 (0000ms, 0645ms total)
T19588 001:147 JLINK_WriteReg(R13 (SP), 0x20001000)  returns 0x00 (0000ms, 0645ms total)
T19588 001:147 JLINK_WriteReg(R14, 0x20000001)  returns 0x00 (0000ms, 0645ms total)
T19588 001:147 JLINK_WriteReg(R15 (PC), 0x20000020)  returns 0x00 (0000ms, 0645ms total)
T19588 001:147 JLINK_WriteReg(XPSR, 0x01000000)  returns 0x00 (0000ms, 0645ms total)
T19588 001:147 JLINK_WriteReg(MSP, 0x20001000)  returns 0x00 (0000ms, 0645ms total)
T19588 001:147 JLINK_WriteReg(PSP, 0x20001000)  returns 0x00 (0000ms, 0645ms total)
T19588 001:147 JLINK_WriteReg(CFBP, 0x00000000)  returns 0x00 (0000ms, 0645ms total)
T19588 001:147 JLINK_SetBPEx(Addr = 0x20000000, Type = 0xFFFFFFF2)  returns 0x00000004 (0000ms, 0645ms total)
T19588 001:147 JLINK_Go() (0002ms, 0647ms total)
T19588 001:149 JLINK_IsHalted() -- CPU_ReadMem(2 bytes @ 0x20000000)  returns TRUE (0004ms, 0651ms total)
T19588 001:153 JLINK_ReadReg(R15 (PC))  returns 0x20000000 (0000ms, 0647ms total)
T19588 001:153 JLINK_ClrBPEx(BPHandle = 0x00000004)  returns 0x00 (0000ms, 0647ms total)
T19588 001:153 JLINK_ReadReg(R0)  returns 0x00000001 (0000ms, 0647ms total)
T19588 001:153 JLINK_WriteReg(R0, 0x08000800)  returns 0x00 (0000ms, 0647ms total)
T19588 001:153 JLINK_WriteReg(R1, 0x00000800)  returns 0x00 (0000ms, 0647ms total)
T19588 001:153 JLINK_WriteReg(R2, 0x000000FF)  returns 0x00 (0000ms, 0647ms total)
T19588 001:153 JLINK_WriteReg(R3, 0x00000000)  returns 0x00 (0000ms, 0647ms total)
T19588 001:153 JLINK_WriteReg(R4, 0x00000000)  returns 0x00 (0000ms, 0647ms total)
T19588 001:153 JLINK_WriteReg(R5, 0x00000000)  returns 0x00 (0000ms, 0647ms total)
T19588 001:153 JLINK_WriteReg(R6, 0x00000000)  returns 0x00 (0000ms, 0647ms total)
T19588 001:153 JLINK_WriteReg(R7, 0x00000000)  returns 0x00 (0000ms, 0647ms total)
T19588 001:153 JLINK_WriteReg(R8, 0x00000000)  returns 0x00 (0000ms, 0647ms total)
T19588 001:153 JLINK_WriteReg(R9, 0x20000160)  returns 0x00 (0000ms, 0647ms total)
T19588 001:153 JLINK_WriteReg(R10, 0x00000000)  returns 0x00 (0000ms, 0647ms total)
T19588 001:153 JLINK_WriteReg(R11, 0x00000000)  returns 0x00 (0000ms, 0647ms total)
T19588 001:153 JLINK_WriteReg(R12, 0x00000000)  returns 0x00 (0000ms, 0647ms total)
T19588 001:153 JLINK_WriteReg(R13 (SP), 0x20001000)  returns 0x00 (0000ms, 0647ms total)
T19588 001:153 JLINK_WriteReg(R14, 0x20000001)  returns 0x00 (0000ms, 0647ms total)
T19588 001:153 JLINK_WriteReg(R15 (PC), 0x200000B6)  returns 0x00 (0000ms, 0647ms total)
T19588 001:153 JLINK_WriteReg(XPSR, 0x01000000)  returns 0x00 (0000ms, 0647ms total)
T19588 001:153 JLINK_WriteReg(MSP, 0x20001000)  returns 0x00 (0000ms, 0647ms total)
T19588 001:153 JLINK_WriteReg(PSP, 0x20001000)  returns 0x00 (0000ms, 0647ms total)
T19588 001:153 JLINK_WriteReg(CFBP, 0x00000000)  returns 0x00 (0000ms, 0647ms total)
T19588 001:153 JLINK_SetBPEx(Addr = 0x20000000, Type = 0xFFFFFFF2)  returns 0x00000005 (0000ms, 0647ms total)
T19588 001:153 JLINK_Go() (0002ms, 0649ms total)
T19588 001:155 JLINK_IsHalted()  returns FALSE (0001ms, 0650ms total)
T19588 001:158 JLINK_IsHalted()  returns FALSE (0000ms, 0649ms total)
T19588 001:160 JLINK_IsHalted()  returns FALSE (0000ms, 0649ms total)
T19588 001:162 JLINK_IsHalted()  returns FALSE (0000ms, 0649ms total)
T19588 001:164 JLINK_IsHalted()  returns FALSE (0000ms, 0649ms total)
T19588 001:166 JLINK_IsHalted()  returns FALSE (0000ms, 0649ms total)
T19588 001:168 JLINK_IsHalted()  returns FALSE (0000ms, 0649ms total)
T19588 001:170 JLINK_IsHalted()  returns FALSE (0000ms, 0649ms total)
T19588 001:172 JLINK_IsHalted()  returns FALSE (0000ms, 0649ms total)
T19588 001:174 JLINK_IsHalted()  returns FALSE (0000ms, 0649ms total)
T19588 001:176 JLINK_IsHalted()  returns FALSE (0000ms, 0649ms total)
T19588 001:178 JLINK_IsHalted() -- CPU_ReadMem(2 bytes @ 0x20000000)  returns TRUE (0004ms, 0653ms total)
T19588 001:182 JLINK_ReadReg(R15 (PC))  returns 0x20000000 (0000ms, 0649ms total)
T19588 001:182 JLINK_ClrBPEx(BPHandle = 0x00000005)  returns 0x00 (0000ms, 0649ms total)
T19588 001:182 JLINK_ReadReg(R0)  returns 0x00000000 (0000ms, 0649ms total)
T19588 001:182 JLINK_WriteReg(R0, 0x08001000)  returns 0x00 (0001ms, 0650ms total)
T19588 001:183 JLINK_WriteReg(R1, 0x00000800)  returns 0x00 (0000ms, 0650ms total)
T19588 001:183 JLINK_WriteReg(R2, 0x000000FF)  returns 0x00 (0000ms, 0650ms total)
T19588 001:183 JLINK_WriteReg(R3, 0x00000000)  returns 0x00 (0000ms, 0650ms total)
T19588 001:183 JLINK_WriteReg(R4, 0x00000000)  returns 0x00 (0000ms, 0650ms total)
T19588 001:183 JLINK_WriteReg(R5, 0x00000000)  returns 0x00 (0000ms, 0650ms total)
T19588 001:183 JLINK_WriteReg(R6, 0x00000000)  returns 0x00 (0000ms, 0650ms total)
T19588 001:183 JLINK_WriteReg(R7, 0x00000000)  returns 0x00 (0000ms, 0650ms total)
T19588 001:183 JLINK_WriteReg(R8, 0x00000000)  returns 0x00 (0000ms, 0650ms total)
T19588 001:183 JLINK_WriteReg(R9, 0x20000160)  returns 0x00 (0000ms, 0650ms total)
T19588 001:183 JLINK_WriteReg(R10, 0x00000000)  returns 0x00 (0000ms, 0650ms total)
T19588 001:183 JLINK_WriteReg(R11, 0x00000000)  returns 0x00 (0000ms, 0650ms total)
T19588 001:183 JLINK_WriteReg(R12, 0x00000000)  returns 0x00 (0000ms, 0650ms total)
T19588 001:183 JLINK_WriteReg(R13 (SP), 0x20001000)  returns 0x00 (0000ms, 0650ms total)
T19588 001:183 JLINK_WriteReg(R14, 0x20000001)  returns 0x00 (0000ms, 0650ms total)
T19588 001:183 JLINK_WriteReg(R15 (PC), 0x20000020)  returns 0x00 (0000ms, 0650ms total)
T19588 001:183 JLINK_WriteReg(XPSR, 0x01000000)  returns 0x00 (0000ms, 0650ms total)
T19588 001:183 JLINK_WriteReg(MSP, 0x20001000)  returns 0x00 (0000ms, 0650ms total)
T19588 001:183 JLINK_WriteReg(PSP, 0x20001000)  returns 0x00 (0000ms, 0650ms total)
T19588 001:183 JLINK_WriteReg(CFBP, 0x00000000)  returns 0x00 (0000ms, 0650ms total)
T19588 001:183 JLINK_SetBPEx(Addr = 0x20000000, Type = 0xFFFFFFF2)  returns 0x00000006 (0000ms, 0650ms total)
T19588 001:183 JLINK_Go() (0002ms, 0652ms total)
T19588 001:185 JLINK_IsHalted() -- CPU_ReadMem(2 bytes @ 0x20000000)  returns TRUE (0004ms, 0656ms total)
T19588 001:189 JLINK_ReadReg(R15 (PC))  returns 0x20000000 (0000ms, 0652ms total)
T19588 001:189 JLINK_ClrBPEx(BPHandle = 0x00000006)  returns 0x00 (0000ms, 0652ms total)
T19588 001:189 JLINK_ReadReg(R0)  returns 0x00000001 (0000ms, 0652ms total)
T19588 001:189 JLINK_WriteReg(R0, 0x08001000)  returns 0x00 (0000ms, 0652ms total)
T19588 001:189 JLINK_WriteReg(R1, 0x00000800)  returns 0x00 (0000ms, 0652ms total)
T19588 001:189 JLINK_WriteReg(R2, 0x000000FF)  returns 0x00 (0000ms, 0652ms total)
T19588 001:189 JLINK_WriteReg(R3, 0x00000000)  returns 0x00 (0000ms, 0652ms total)
T19588 001:189 JLINK_WriteReg(R4, 0x00000000)  returns 0x00 (0000ms, 0652ms total)
T19588 001:189 JLINK_WriteReg(R5, 0x00000000)  returns 0x00 (0000ms, 0652ms total)
T19588 001:189 JLINK_WriteReg(R6, 0x00000000)  returns 0x00 (0000ms, 0652ms total)
T19588 001:189 JLINK_WriteReg(R7, 0x00000000)  returns 0x00 (0000ms, 0652ms total)
T19588 001:189 JLINK_WriteReg(R8, 0x00000000)  returns 0x00 (0000ms, 0652ms total)
T19588 001:189 JLINK_WriteReg(R9, 0x20000160)  returns 0x00 (0000ms, 0652ms total)
T19588 001:189 JLINK_WriteReg(R10, 0x00000000)  returns 0x00 (0000ms, 0652ms total)
T19588 001:189 JLINK_WriteReg(R11, 0x00000000)  returns 0x00 (0000ms, 0652ms total)
T19588 001:189 JLINK_WriteReg(R12, 0x00000000)  returns 0x00 (0001ms, 0653ms total)
T19588 001:190 JLINK_WriteReg(R13 (SP), 0x20001000)  returns 0x00 (0000ms, 0653ms total)
T19588 001:190 JLINK_WriteReg(R14, 0x20000001)  returns 0x00 (0000ms, 0653ms total)
T19588 001:190 JLINK_WriteReg(R15 (PC), 0x200000B6)  returns 0x00 (0000ms, 0653ms total)
T19588 001:190 JLINK_WriteReg(XPSR, 0x01000000)  returns 0x00 (0000ms, 0653ms total)
T19588 001:190 JLINK_WriteReg(MSP, 0x20001000)  returns 0x00 (0000ms, 0653ms total)
T19588 001:190 JLINK_WriteReg(PSP, 0x20001000)  returns 0x00 (0000ms, 0653ms total)
T19588 001:190 JLINK_WriteReg(CFBP, 0x00000000)  returns 0x00 (0000ms, 0653ms total)
T19588 001:190 JLINK_SetBPEx(Addr = 0x20000000, Type = 0xFFFFFFF2)  returns 0x00000007 (0000ms, 0653ms total)
T19588 001:190 JLINK_Go() (0001ms, 0654ms total)
T19588 001:191 JLINK_IsHalted()  returns FALSE (0001ms, 0655ms total)
T19588 001:194 JLINK_IsHalted()  returns FALSE (0000ms, 0654ms total)
T19588 001:196 JLINK_IsHalted()  returns FALSE (0000ms, 0654ms total)
T19588 001:198 JLINK_IsHalted()  returns FALSE (0000ms, 0654ms total)
T19588 001:200 JLINK_IsHalted()  returns FALSE (0000ms, 0654ms total)
T19588 001:202 JLINK_IsHalted()  returns FALSE (0000ms, 0654ms total)
T19588 001:204 JLINK_IsHalted()  returns FALSE (0000ms, 0654ms total)
T19588 001:206 JLINK_IsHalted()  returns FALSE (0000ms, 0654ms total)
T19588 001:208 JLINK_IsHalted()  returns FALSE (0000ms, 0654ms total)
T19588 001:210 JLINK_IsHalted()  returns FALSE (0000ms, 0654ms total)
T19588 001:212 JLINK_IsHalted()  returns FALSE (0000ms, 0654ms total)
T19588 001:214 JLINK_IsHalted() -- CPU_ReadMem(2 bytes @ 0x20000000)  returns TRUE (0004ms, 0658ms total)
T19588 001:218 JLINK_ReadReg(R15 (PC))  returns 0x20000000 (0000ms, 0654ms total)
T19588 001:218 JLINK_ClrBPEx(BPHandle = 0x00000007)  returns 0x00 (0000ms, 0654ms total)
T19588 001:218 JLINK_ReadReg(R0)  returns 0x00000000 (0000ms, 0654ms total)
T19588 001:218 JLINK_WriteReg(R0, 0x08001800)  returns 0x00 (0000ms, 0654ms total)
T19588 001:218 JLINK_WriteReg(R1, 0x00000800)  returns 0x00 (0000ms, 0654ms total)
T19588 001:218 JLINK_WriteReg(R2, 0x000000FF)  returns 0x00 (0001ms, 0655ms total)
T19588 001:219 JLINK_WriteReg(R3, 0x00000000)  returns 0x00 (0000ms, 0655ms total)
T19588 001:219 JLINK_WriteReg(R4, 0x00000000)  returns 0x00 (0000ms, 0655ms total)
T19588 001:219 JLINK_WriteReg(R5, 0x00000000)  returns 0x00 (0000ms, 0655ms total)
T19588 001:219 JLINK_WriteReg(R6, 0x00000000)  returns 0x00 (0000ms, 0655ms total)
T19588 001:219 JLINK_WriteReg(R7, 0x00000000)  returns 0x00 (0000ms, 0655ms total)
T19588 001:219 JLINK_WriteReg(R8, 0x00000000)  returns 0x00 (0000ms, 0655ms total)
T19588 001:219 JLINK_WriteReg(R9, 0x20000160)  returns 0x00 (0000ms, 0655ms total)
T19588 001:219 JLINK_WriteReg(R10, 0x00000000)  returns 0x00 (0000ms, 0655ms total)
T19588 001:219 JLINK_WriteReg(R11, 0x00000000)  returns 0x00 (0000ms, 0655ms total)
T19588 001:219 JLINK_WriteReg(R12, 0x00000000)  returns 0x00 (0000ms, 0655ms total)
T19588 001:219 JLINK_WriteReg(R13 (SP), 0x20001000)  returns 0x00 (0000ms, 0655ms total)
T19588 001:219 JLINK_WriteReg(R14, 0x20000001)  returns 0x00 (0000ms, 0655ms total)
T19588 001:219 JLINK_WriteReg(R15 (PC), 0x20000020)  returns 0x00 (0000ms, 0655ms total)
T19588 001:219 JLINK_WriteReg(XPSR, 0x01000000)  returns 0x00 (0000ms, 0655ms total)
T19588 001:219 JLINK_WriteReg(MSP, 0x20001000)  returns 0x00 (0000ms, 0655ms total)
T19588 001:219 JLINK_WriteReg(PSP, 0x20001000)  returns 0x00 (0000ms, 0655ms total)
T19588 001:219 JLINK_WriteReg(CFBP, 0x00000000)  returns 0x00 (0000ms, 0655ms total)
T19588 001:219 JLINK_SetBPEx(Addr = 0x20000000, Type = 0xFFFFFFF2)  returns 0x00000008 (0000ms, 0655ms total)
T19588 001:219 JLINK_Go() (0002ms, 0657ms total)
T19588 001:221 JLINK_IsHalted() -- CPU_ReadMem(2 bytes @ 0x20000000)  returns TRUE (0004ms, 0661ms total)
T19588 001:225 JLINK_ReadReg(R15 (PC))  returns 0x20000000 (0000ms, 0657ms total)
T19588 001:225 JLINK_ClrBPEx(BPHandle = 0x00000008)  returns 0x00 (0000ms, 0657ms total)
T19588 001:225 JLINK_ReadReg(R0)  returns 0x00000001 (0000ms, 0657ms total)
T19588 001:225 JLINK_WriteReg(R0, 0x08001800)  returns 0x00 (0000ms, 0657ms total)
T19588 001:225 JLINK_WriteReg(R1, 0x00000800)  returns 0x00 (0000ms, 0657ms total)
T19588 001:225 JLINK_WriteReg(R2, 0x000000FF)  returns 0x00 (0000ms, 0657ms total)
T19588 001:225 JLINK_WriteReg(R3, 0x00000000)  returns 0x00 (0000ms, 0657ms total)
T19588 001:225 JLINK_WriteReg(R4, 0x00000000)  returns 0x00 (0000ms, 0657ms total)
T19588 001:225 JLINK_WriteReg(R5, 0x00000000)  returns 0x00 (0000ms, 0657ms total)
T19588 001:225 JLINK_WriteReg(R6, 0x00000000)  returns 0x00 (0000ms, 0657ms total)
T19588 001:225 JLINK_WriteReg(R7, 0x00000000)  returns 0x00 (0000ms, 0657ms total)
T19588 001:225 JLINK_WriteReg(R8, 0x00000000)  returns 0x00 (0000ms, 0657ms total)
T19588 001:225 JLINK_WriteReg(R9, 0x20000160)  returns 0x00 (0000ms, 0657ms total)
T19588 001:225 JLINK_WriteReg(R10, 0x00000000)  returns 0x00 (0000ms, 0657ms total)
T19588 001:225 JLINK_WriteReg(R11, 0x00000000)  returns 0x00 (0000ms, 0657ms total)
T19588 001:225 JLINK_WriteReg(R12, 0x00000000)  returns 0x00 (0000ms, 0657ms total)
T19588 001:225 JLINK_WriteReg(R13 (SP), 0x20001000)  returns 0x00 (0000ms, 0657ms total)
T19588 001:225 JLINK_WriteReg(R14, 0x20000001)  returns 0x00 (0000ms, 0657ms total)
T19588 001:225 JLINK_WriteReg(R15 (PC), 0x200000B6)  returns 0x00 (0000ms, 0657ms total)
T19588 001:225 JLINK_WriteReg(XPSR, 0x01000000)  returns 0x00 (0000ms, 0657ms total)
T19588 001:225 JLINK_WriteReg(MSP, 0x20001000)  returns 0x00 (0000ms, 0657ms total)
T19588 001:226 JLINK_WriteReg(PSP, 0x20001000)  returns 0x00 (0000ms, 0657ms total)
T19588 001:226 JLINK_WriteReg(CFBP, 0x00000000)  returns 0x00 (0000ms, 0657ms total)
T19588 001:226 JLINK_SetBPEx(Addr = 0x20000000, Type = 0xFFFFFFF2)  returns 0x00000009 (0000ms, 0657ms total)
T19588 001:226 JLINK_Go() (0001ms, 0658ms total)
T19588 001:227 JLINK_IsHalted()  returns FALSE (0001ms, 0659ms total)
T19588 001:234 JLINK_IsHalted()  returns FALSE (0000ms, 0658ms total)
T19588 001:236 JLINK_IsHalted()  returns FALSE (0000ms, 0658ms total)
T19588 001:238 JLINK_IsHalted()  returns FALSE (0000ms, 0658ms total)
T19588 001:240 JLINK_IsHalted()  returns FALSE (0000ms, 0658ms total)
T19588 001:242 JLINK_IsHalted()  returns FALSE (0000ms, 0658ms total)
T19588 001:244 JLINK_IsHalted()  returns FALSE (0000ms, 0658ms total)
T19588 001:246 JLINK_IsHalted()  returns FALSE (0000ms, 0658ms total)
T19588 001:248 JLINK_IsHalted()  returns FALSE (0001ms, 0659ms total)
T19588 001:251 JLINK_IsHalted() -- CPU_ReadMem(2 bytes @ 0x20000000)  returns TRUE (0004ms, 0662ms total)
T19588 001:255 JLINK_ReadReg(R15 (PC))  returns 0x20000000 (0000ms, 0658ms total)
T19588 001:255 JLINK_ClrBPEx(BPHandle = 0x00000009)  returns 0x00 (0000ms, 0658ms total)
T19588 001:255 JLINK_ReadReg(R0)  returns 0x00000000 (0000ms, 0658ms total)
T19588 001:256 JLINK_WriteReg(R0, 0x08002000)  returns 0x00 (0000ms, 0658ms total)
T19588 001:256 JLINK_WriteReg(R1, 0x00000800)  returns 0x00 (0000ms, 0658ms total)
T19588 001:256 JLINK_WriteReg(R2, 0x000000FF)  returns 0x00 (0000ms, 0658ms total)
T19588 001:256 JLINK_WriteReg(R3, 0x00000000)  returns 0x00 (0000ms, 0658ms total)
T19588 001:256 JLINK_WriteReg(R4, 0x00000000)  returns 0x00 (0000ms, 0658ms total)
T19588 001:256 JLINK_WriteReg(R5, 0x00000000)  returns 0x00 (0000ms, 0658ms total)
T19588 001:256 JLINK_WriteReg(R6, 0x00000000)  returns 0x00 (0000ms, 0658ms total)
T19588 001:256 JLINK_WriteReg(R7, 0x00000000)  returns 0x00 (0000ms, 0658ms total)
T19588 001:256 JLINK_WriteReg(R8, 0x00000000)  returns 0x00 (0000ms, 0658ms total)
T19588 001:256 JLINK_WriteReg(R9, 0x20000160)  returns 0x00 (0000ms, 0658ms total)
T19588 001:256 JLINK_WriteReg(R10, 0x00000000)  returns 0x00 (0000ms, 0658ms total)
T19588 001:256 JLINK_WriteReg(R11, 0x00000000)  returns 0x00 (0000ms, 0658ms total)
T19588 001:256 JLINK_WriteReg(R12, 0x00000000)  returns 0x00 (0000ms, 0658ms total)
T19588 001:256 JLINK_WriteReg(R13 (SP), 0x20001000)  returns 0x00 (0000ms, 0658ms total)
T19588 001:256 JLINK_WriteReg(R14, 0x20000001)  returns 0x00 (0000ms, 0658ms total)
T19588 001:256 JLINK_WriteReg(R15 (PC), 0x20000020)  returns 0x00 (0000ms, 0658ms total)
T19588 001:256 JLINK_WriteReg(XPSR, 0x01000000)  returns 0x00 (0000ms, 0658ms total)
T19588 001:256 JLINK_WriteReg(MSP, 0x20001000)  returns 0x00 (0001ms, 0659ms total)
T19588 001:257 JLINK_WriteReg(PSP, 0x20001000)  returns 0x00 (0000ms, 0659ms total)
T19588 001:257 JLINK_WriteReg(CFBP, 0x00000000)  returns 0x00 (0000ms, 0659ms total)
T19588 001:257 JLINK_SetBPEx(Addr = 0x20000000, Type = 0xFFFFFFF2)  returns 0x0000000A (0000ms, 0659ms total)
T19588 001:257 JLINK_Go() (0002ms, 0661ms total)
T19588 001:259 JLINK_IsHalted() -- CPU_ReadMem(2 bytes @ 0x20000000)  returns TRUE (0004ms, 0665ms total)
T19588 001:263 JLINK_ReadReg(R15 (PC))  returns 0x20000000 (0000ms, 0661ms total)
T19588 001:263 JLINK_ClrBPEx(BPHandle = 0x0000000A)  returns 0x00 (0001ms, 0662ms total)
T19588 001:264 JLINK_ReadReg(R0)  returns 0x00000001 (0000ms, 0662ms total)
T19588 001:264 JLINK_WriteReg(R0, 0x08002000)  returns 0x00 (0000ms, 0662ms total)
T19588 001:264 JLINK_WriteReg(R1, 0x00000800)  returns 0x00 (0000ms, 0662ms total)
T19588 001:264 JLINK_WriteReg(R2, 0x000000FF)  returns 0x00 (0000ms, 0662ms total)
T19588 001:264 JLINK_WriteReg(R3, 0x00000000)  returns 0x00 (0000ms, 0662ms total)
T19588 001:264 JLINK_WriteReg(R4, 0x00000000)  returns 0x00 (0000ms, 0662ms total)
T19588 001:264 JLINK_WriteReg(R5, 0x00000000)  returns 0x00 (0000ms, 0662ms total)
T19588 001:264 JLINK_WriteReg(R6, 0x00000000)  returns 0x00 (0000ms, 0662ms total)
T19588 001:264 JLINK_WriteReg(R7, 0x00000000)  returns 0x00 (0000ms, 0662ms total)
T19588 001:264 JLINK_WriteReg(R8, 0x00000000)  returns 0x00 (0000ms, 0662ms total)
T19588 001:264 JLINK_WriteReg(R9, 0x20000160)  returns 0x00 (0000ms, 0662ms total)
T19588 001:264 JLINK_WriteReg(R10, 0x00000000)  returns 0x00 (0000ms, 0662ms total)
T19588 001:264 JLINK_WriteReg(R11, 0x00000000)  returns 0x00 (0000ms, 0662ms total)
T19588 001:264 JLINK_WriteReg(R12, 0x00000000)  returns 0x00 (0000ms, 0662ms total)
T19588 001:264 JLINK_WriteReg(R13 (SP), 0x20001000)  returns 0x00 (0000ms, 0662ms total)
T19588 001:264 JLINK_WriteReg(R14, 0x20000001)  returns 0x00 (0000ms, 0662ms total)
T19588 001:264 JLINK_WriteReg(R15 (PC), 0x200000B6)  returns 0x00 (0000ms, 0662ms total)
T19588 001:264 JLINK_WriteReg(XPSR, 0x01000000)  returns 0x00 (0000ms, 0662ms total)
T19588 001:264 JLINK_WriteReg(MSP, 0x20001000)  returns 0x00 (0000ms, 0662ms total)
T19588 001:264 JLINK_WriteReg(PSP, 0x20001000)  returns 0x00 (0000ms, 0662ms total)
T19588 001:264 JLINK_WriteReg(CFBP, 0x00000000)  returns 0x00 (0000ms, 0662ms total)
T19588 001:264 JLINK_SetBPEx(Addr = 0x20000000, Type = 0xFFFFFFF2)  returns 0x0000000B (0000ms, 0662ms total)
T19588 001:264 JLINK_Go() (0003ms, 0665ms total)
T19588 001:267 JLINK_IsHalted()  returns FALSE (0000ms, 0665ms total)
T19588 001:269 JLINK_IsHalted()  returns FALSE (0000ms, 0665ms total)
T19588 001:271 JLINK_IsHalted()  returns FALSE (0000ms, 0665ms total)
T19588 001:273 JLINK_IsHalted()  returns FALSE (0000ms, 0665ms total)
T19588 001:275 JLINK_IsHalted()  returns FALSE (0000ms, 0665ms total)
T19588 001:279 JLINK_IsHalted()  returns FALSE (0000ms, 0665ms total)
T19588 001:281 JLINK_IsHalted()  returns FALSE (0000ms, 0665ms total)
T19588 001:283 JLINK_IsHalted()  returns FALSE (0000ms, 0665ms total)
T19588 001:285 JLINK_IsHalted()  returns FALSE (0000ms, 0665ms total)
T19588 001:287 JLINK_IsHalted()  returns FALSE (0000ms, 0665ms total)
T19588 001:289 JLINK_IsHalted() -- CPU_ReadMem(2 bytes @ 0x20000000)  returns TRUE (0004ms, 0669ms total)
T19588 001:293 JLINK_ReadReg(R15 (PC))  returns 0x20000000 (0000ms, 0665ms total)
T19588 001:293 JLINK_ClrBPEx(BPHandle = 0x0000000B)  returns 0x00 (0000ms, 0665ms total)
T19588 001:293 JLINK_ReadReg(R0)  returns 0x00000000 (0000ms, 0665ms total)
T19588 001:294 JLINK_WriteReg(R0, 0x00000001)  returns 0x00 (0000ms, 0665ms total)
T19588 001:294 JLINK_WriteReg(R1, 0x00000800)  returns 0x00 (0000ms, 0665ms total)
T19588 001:294 JLINK_WriteReg(R2, 0x000000FF)  returns 0x00 (0000ms, 0665ms total)
T19588 001:294 JLINK_WriteReg(R3, 0x00000000)  returns 0x00 (0000ms, 0665ms total)
T19588 001:294 JLINK_WriteReg(R4, 0x00000000)  returns 0x00 (0000ms, 0665ms total)
T19588 001:294 JLINK_WriteReg(R5, 0x00000000)  returns 0x00 (0000ms, 0665ms total)
T19588 001:294 JLINK_WriteReg(R6, 0x00000000)  returns 0x00 (0000ms, 0665ms total)
T19588 001:294 JLINK_WriteReg(R7, 0x00000000)  returns 0x00 (0000ms, 0665ms total)
T19588 001:294 JLINK_WriteReg(R8, 0x00000000)  returns 0x00 (0000ms, 0665ms total)
T19588 001:294 JLINK_WriteReg(R9, 0x20000160)  returns 0x00 (0000ms, 0665ms total)
T19588 001:294 JLINK_WriteReg(R10, 0x00000000)  returns 0x00 (0000ms, 0665ms total)
T19588 001:294 JLINK_WriteReg(R11, 0x00000000)  returns 0x00 (0000ms, 0665ms total)
T19588 001:294 JLINK_WriteReg(R12, 0x00000000)  returns 0x00 (0000ms, 0665ms total)
T19588 001:294 JLINK_WriteReg(R13 (SP), 0x20001000)  returns 0x00 (0000ms, 0665ms total)
T19588 001:294 JLINK_WriteReg(R14, 0x20000001)  returns 0x00 (0000ms, 0665ms total)
T19588 001:294 JLINK_WriteReg(R15 (PC), 0x2000006A)  returns 0x00 (0000ms, 0665ms total)
T19588 001:294 JLINK_WriteReg(XPSR, 0x01000000)  returns 0x00 (0000ms, 0665ms total)
T19588 001:294 JLINK_WriteReg(MSP, 0x20001000)  returns 0x00 (0000ms, 0665ms total)
T19588 001:294 JLINK_WriteReg(PSP, 0x20001000)  returns 0x00 (0000ms, 0665ms total)
T19588 001:294 JLINK_WriteReg(CFBP, 0x00000000)  returns 0x00 (0000ms, 0665ms total)
T19588 001:294 JLINK_SetBPEx(Addr = 0x20000000, Type = 0xFFFFFFF2)  returns 0x0000000C (0000ms, 0665ms total)
T19588 001:294 JLINK_Go() (0002ms, 0667ms total)
T19588 001:296 JLINK_IsHalted() -- CPU_ReadMem(2 bytes @ 0x20000000)  returns TRUE (0005ms, 0672ms total)
T19588 001:301 JLINK_ReadReg(R15 (PC))  returns 0x20000000 (0000ms, 0667ms total)
T19588 001:301 JLINK_ClrBPEx(BPHandle = 0x0000000C)  returns 0x00 (0000ms, 0667ms total)
T19588 001:301 JLINK_ReadReg(R0)  returns 0x00000000 (0000ms, 0667ms total)
T19588 001:359 JLINK_WriteMem(0x20000000, 0x0164 Bytes, ...) - Data: 00 BE 0A E0 0D 78 2D 06 68 40 08 24 40 00 00 D3 ... -- CPU_WriteMem(356 bytes @ 0x20000000)  returns 0x164 (0005ms, 0672ms total)
T19588 001:364 JLINK_WriteReg(R0, 0x08000000)  returns 0x00 (0000ms, 0672ms total)
T19588 001:364 JLINK_WriteReg(R1, 0x007A1200)  returns 0x00 (0000ms, 0672ms total)
T19588 001:364 JLINK_WriteReg(R2, 0x00000002)  returns 0x00 (0000ms, 0672ms total)
T19588 001:364 JLINK_WriteReg(R3, 0x00000000)  returns 0x00 (0000ms, 0672ms total)
T19588 001:364 JLINK_WriteReg(R4, 0x00000000)  returns 0x00 (0000ms, 0672ms total)
T19588 001:364 JLINK_WriteReg(R5, 0x00000000)  returns 0x00 (0000ms, 0672ms total)
T19588 001:364 JLINK_WriteReg(R6, 0x00000000)  returns 0x00 (0000ms, 0672ms total)
T19588 001:364 JLINK_WriteReg(R7, 0x00000000)  returns 0x00 (0000ms, 0672ms total)
T19588 001:364 JLINK_WriteReg(R8, 0x00000000)  returns 0x00 (0000ms, 0672ms total)
T19588 001:364 JLINK_WriteReg(R9, 0x20000160)  returns 0x00 (0000ms, 0672ms total)
T19588 001:364 JLINK_WriteReg(R10, 0x00000000)  returns 0x00 (0000ms, 0672ms total)
T19588 001:364 JLINK_WriteReg(R11, 0x00000000)  returns 0x00 (0000ms, 0672ms total)
T19588 001:364 JLINK_WriteReg(R12, 0x00000000)  returns 0x00 (0000ms, 0672ms total)
T19588 001:364 JLINK_WriteReg(R13 (SP), 0x20001000)  returns 0x00 (0000ms, 0672ms total)
T19588 001:364 JLINK_WriteReg(R14, 0x20000001)  returns 0x00 (0000ms, 0672ms total)
T19588 001:364 JLINK_WriteReg(R15 (PC), 0x20000038)  returns 0x00 (0000ms, 0672ms total)
T19588 001:364 JLINK_WriteReg(XPSR, 0x01000000)  returns 0x00 (0000ms, 0672ms total)
T19588 001:364 JLINK_WriteReg(MSP, 0x20001000)  returns 0x00 (0000ms, 0672ms total)
T19588 001:364 JLINK_WriteReg(PSP, 0x20001000)  returns 0x00 (0000ms, 0672ms total)
T19588 001:364 JLINK_WriteReg(CFBP, 0x00000000)  returns 0x00 (0000ms, 0672ms total)
T19588 001:364 JLINK_SetBPEx(Addr = 0x20000000, Type = 0xFFFFFFF2) -- CPU_ReadMem(2 bytes @ 0x20000000)  returns 0x0000000D (0002ms, 0674ms total)
T19588 001:366 JLINK_Go() -- CPU_WriteMem(2 bytes @ 0x20000000) (0003ms, 0677ms total)
T19588 001:369 JLINK_IsHalted() -- CPU_ReadMem(2 bytes @ 0x20000000)  returns TRUE (0005ms, 0682ms total)
T19588 001:374 JLINK_ReadReg(R15 (PC))  returns 0x20000000 (0000ms, 0677ms total)
T19588 001:374 JLINK_ClrBPEx(BPHandle = 0x0000000D)  returns 0x00 (0000ms, 0677ms total)
T19588 001:374 JLINK_ReadReg(R0)  returns 0x00000000 (0000ms, 0677ms total)
T19588 001:374 JLINK_WriteMem(0x20000164, 0x029C Bytes, ...) - Data: 60 07 00 20 E5 01 00 08 35 15 00 08 ED 13 00 08 ... -- CPU_WriteMem(668 bytes @ 0x20000164)  returns 0x29C (0009ms, 0686ms total)
T19588 001:383 JLINK_WriteMem(0x20000400, 0x0164 Bytes, ...) - Data: 20 A0 20 46 E1 68 88 47 00 28 76 D0 25 28 06 D0 ... -- CPU_WriteMem(356 bytes @ 0x20000400)  returns 0x164 (0005ms, 0691ms total)
T19588 001:388 JLINK_WriteReg(R0, 0x08000000)  returns 0x00 (0000ms, 0691ms total)
T19588 001:388 JLINK_WriteReg(R1, 0x00000400)  returns 0x00 (0000ms, 0691ms total)
T19588 001:388 JLINK_WriteReg(R2, 0x20000164)  returns 0x00 (0000ms, 0691ms total)
T19588 001:388 JLINK_WriteReg(R3, 0x00000000)  returns 0x00 (0000ms, 0691ms total)
T19588 001:388 JLINK_WriteReg(R4, 0x00000000)  returns 0x00 (0000ms, 0691ms total)
T19588 001:388 JLINK_WriteReg(R5, 0x00000000)  returns 0x00 (0000ms, 0691ms total)
T19588 001:388 JLINK_WriteReg(R6, 0x00000000)  returns 0x00 (0000ms, 0691ms total)
T19588 001:388 JLINK_WriteReg(R7, 0x00000000)  returns 0x00 (0000ms, 0691ms total)
T19588 001:388 JLINK_WriteReg(R8, 0x00000000)  returns 0x00 (0000ms, 0691ms total)
T19588 001:388 JLINK_WriteReg(R9, 0x20000160)  returns 0x00 (0000ms, 0691ms total)
T19588 001:388 JLINK_WriteReg(R10, 0x00000000)  returns 0x00 (0000ms, 0691ms total)
T19588 001:388 JLINK_WriteReg(R11, 0x00000000)  returns 0x00 (0000ms, 0691ms total)
T19588 001:388 JLINK_WriteReg(R12, 0x00000000)  returns 0x00 (0000ms, 0691ms total)
T19588 001:388 JLINK_WriteReg(R13 (SP), 0x20001000)  returns 0x00 (0000ms, 0691ms total)
T19588 001:388 JLINK_WriteReg(R14, 0x20000001)  returns 0x00 (0000ms, 0691ms total)
T19588 001:388 JLINK_WriteReg(R15 (PC), 0x200000F4)  returns 0x00 (0000ms, 0691ms total)
T19588 001:388 JLINK_WriteReg(XPSR, 0x01000000)  returns 0x00 (0000ms, 0691ms total)
T19588 001:388 JLINK_WriteReg(MSP, 0x20001000)  returns 0x00 (0000ms, 0691ms total)
T19588 001:388 JLINK_WriteReg(PSP, 0x20001000)  returns 0x00 (0000ms, 0691ms total)
T19588 001:388 JLINK_WriteReg(CFBP, 0x00000000)  returns 0x00 (0000ms, 0691ms total)
T19588 001:388 JLINK_SetBPEx(Addr = 0x20000000, Type = 0xFFFFFFF2)  returns 0x0000000E (0000ms, 0691ms total)
T19588 001:388 JLINK_Go() (0002ms, 0693ms total)
T19588 001:390 JLINK_IsHalted()  returns FALSE (0001ms, 0694ms total)
T19588 001:395 JLINK_IsHalted()  returns FALSE (0000ms, 0693ms total)
T19588 001:397 JLINK_IsHalted()  returns FALSE (0000ms, 0693ms total)
T19588 001:399 JLINK_IsHalted()  returns FALSE (0000ms, 0693ms total)
T19588 001:401 JLINK_IsHalted()  returns FALSE (0000ms, 0693ms total)
T19588 001:403 JLINK_IsHalted()  returns FALSE (0000ms, 0693ms total)
T19588 001:405 JLINK_IsHalted()  returns FALSE (0001ms, 0694ms total)
T19588 001:407 JLINK_IsHalted()  returns FALSE (0001ms, 0694ms total)
T19588 001:409 JLINK_IsHalted()  returns FALSE (0000ms, 0693ms total)
T19588 001:410 JLINK_IsHalted()  returns FALSE (0000ms, 0693ms total)
T19588 001:412 JLINK_IsHalted()  returns FALSE (0000ms, 0693ms total)
T19588 001:415 JLINK_IsHalted()  returns FALSE (0000ms, 0693ms total)
T19588 001:416 JLINK_IsHalted()  returns FALSE (0000ms, 0693ms total)
T19588 001:418 JLINK_IsHalted()  returns FALSE (0000ms, 0693ms total)
T19588 001:420 JLINK_IsHalted()  returns FALSE (0000ms, 0693ms total)
T19588 001:422 JLINK_IsHalted() -- CPU_ReadMem(2 bytes @ 0x20000000)  returns TRUE (0004ms, 0697ms total)
T19588 001:426 JLINK_ReadReg(R15 (PC))  returns 0x20000000 (0000ms, 0693ms total)
T19588 001:426 JLINK_ClrBPEx(BPHandle = 0x0000000E)  returns 0x00 (0000ms, 0693ms total)
T19588 001:426 JLINK_ReadReg(R0)  returns 0x00000000 (0000ms, 0693ms total)
T19588 001:426 JLINK_WriteMem(0x20000164, 0x029C Bytes, ...) - Data: FF 35 45 43 2F 14 B8 F1 00 0F 1E D0 75 42 29 1E ... -- CPU_WriteMem(668 bytes @ 0x20000164)  returns 0x29C (0010ms, 0703ms total)
T19588 001:436 JLINK_WriteMem(0x20000400, 0x0164 Bytes, ...) - Data: B8 1B 00 F1 01 0A 4F F0 00 47 20 78 00 07 03 D4 ... -- CPU_WriteMem(356 bytes @ 0x20000400)  returns 0x164 (0005ms, 0708ms total)
T19588 001:441 JLINK_WriteReg(R0, 0x08000400)  returns 0x00 (0000ms, 0708ms total)
T19588 001:441 JLINK_WriteReg(R1, 0x00000400)  returns 0x00 (0000ms, 0708ms total)
T19588 001:441 JLINK_WriteReg(R2, 0x20000164)  returns 0x00 (0000ms, 0708ms total)
T19588 001:441 JLINK_WriteReg(R3, 0x00000000)  returns 0x00 (0000ms, 0708ms total)
T19588 001:441 JLINK_WriteReg(R4, 0x00000000)  returns 0x00 (0000ms, 0708ms total)
T19588 001:441 JLINK_WriteReg(R5, 0x00000000)  returns 0x00 (0000ms, 0708ms total)
T19588 001:441 JLINK_WriteReg(R6, 0x00000000)  returns 0x00 (0000ms, 0708ms total)
T19588 001:441 JLINK_WriteReg(R7, 0x00000000)  returns 0x00 (0000ms, 0708ms total)
T19588 001:441 JLINK_WriteReg(R8, 0x00000000)  returns 0x00 (0000ms, 0708ms total)
T19588 001:441 JLINK_WriteReg(R9, 0x20000160)  returns 0x00 (0000ms, 0708ms total)
T19588 001:441 JLINK_WriteReg(R10, 0x00000000)  returns 0x00 (0000ms, 0708ms total)
T19588 001:441 JLINK_WriteReg(R11, 0x00000000)  returns 0x00 (0000ms, 0708ms total)
T19588 001:441 JLINK_WriteReg(R12, 0x00000000)  returns 0x00 (0000ms, 0708ms total)
T19588 001:441 JLINK_WriteReg(R13 (SP), 0x20001000)  returns 0x00 (0000ms, 0708ms total)
T19588 001:441 JLINK_WriteReg(R14, 0x20000001)  returns 0x00 (0000ms, 0708ms total)
T19588 001:441 JLINK_WriteReg(R15 (PC), 0x200000F4)  returns 0x00 (0000ms, 0708ms total)
T19588 001:441 JLINK_WriteReg(XPSR, 0x01000000)  returns 0x00 (0000ms, 0708ms total)
T19588 001:441 JLINK_WriteReg(MSP, 0x20001000)  returns 0x00 (0000ms, 0708ms total)
T19588 001:441 JLINK_WriteReg(PSP, 0x20001000)  returns 0x00 (0000ms, 0708ms total)
T19588 001:441 JLINK_WriteReg(CFBP, 0x00000000)  returns 0x00 (0000ms, 0708ms total)
T19588 001:441 JLINK_SetBPEx(Addr = 0x20000000, Type = 0xFFFFFFF2)  returns 0x0000000F (0000ms, 0708ms total)
T19588 001:441 JLINK_Go() (0002ms, 0710ms total)
T19588 001:443 JLINK_IsHalted()  returns FALSE (0001ms, 0711ms total)
T19588 001:446 JLINK_IsHalted()  returns FALSE (0000ms, 0710ms total)
T19588 001:450 JLINK_IsHalted()  returns FALSE (0000ms, 0710ms total)
T19588 001:452 JLINK_IsHalted()  returns FALSE (0000ms, 0710ms total)
T19588 001:454 JLINK_IsHalted()  returns FALSE (0002ms, 0712ms total)
T19588 001:458 JLINK_IsHalted()  returns FALSE (0000ms, 0710ms total)
T19588 001:460 JLINK_IsHalted()  returns FALSE (0000ms, 0710ms total)
T19588 001:462 JLINK_IsHalted()  returns FALSE (0000ms, 0710ms total)
T19588 001:464 JLINK_IsHalted()  returns FALSE (0000ms, 0710ms total)
T19588 001:466 JLINK_IsHalted()  returns FALSE (0000ms, 0710ms total)
T19588 001:468 JLINK_IsHalted()  returns FALSE (0000ms, 0710ms total)
T19588 001:470 JLINK_IsHalted()  returns FALSE (0000ms, 0710ms total)
T19588 001:472 JLINK_IsHalted()  returns FALSE (0000ms, 0710ms total)
T19588 001:474 JLINK_IsHalted() -- CPU_ReadMem(2 bytes @ 0x20000000)  returns TRUE (0004ms, 0714ms total)
T19588 001:478 JLINK_ReadReg(R15 (PC))  returns 0x20000000 (0000ms, 0710ms total)
T19588 001:478 JLINK_ClrBPEx(BPHandle = 0x0000000F)  returns 0x00 (0000ms, 0710ms total)
T19588 001:478 JLINK_ReadReg(R0)  returns 0x00000000 (0000ms, 0710ms total)
T19588 001:478 JLINK_WriteMem(0x20000164, 0x029C Bytes, ...) - Data: 81 7E B0 EB 0E 00 61 EB 91 01 4F EA 10 1E 4E EA ... -- CPU_WriteMem(668 bytes @ 0x20000164)  returns 0x29C (0010ms, 0720ms total)
T19588 001:488 JLINK_WriteMem(0x20000400, 0x0164 Bytes, ...) - Data: 51 F8 04 3B 9A 42 15 D1 A2 EB 0C 03 93 43 13 EA ... -- CPU_WriteMem(356 bytes @ 0x20000400)  returns 0x164 (0004ms, 0724ms total)
T19588 001:492 JLINK_WriteReg(R0, 0x08000800)  returns 0x00 (0000ms, 0724ms total)
T19588 001:492 JLINK_WriteReg(R1, 0x00000400)  returns 0x00 (0000ms, 0724ms total)
T19588 001:493 JLINK_WriteReg(R2, 0x20000164)  returns 0x00 (0000ms, 0725ms total)
T19588 001:493 JLINK_WriteReg(R3, 0x00000000)  returns 0x00 (0000ms, 0725ms total)
T19588 001:493 JLINK_WriteReg(R4, 0x00000000)  returns 0x00 (0000ms, 0725ms total)
T19588 001:493 JLINK_WriteReg(R5, 0x00000000)  returns 0x00 (0000ms, 0725ms total)
T19588 001:493 JLINK_WriteReg(R6, 0x00000000)  returns 0x00 (0000ms, 0725ms total)
T19588 001:493 JLINK_WriteReg(R7, 0x00000000)  returns 0x00 (0000ms, 0725ms total)
T19588 001:493 JLINK_WriteReg(R8, 0x00000000)  returns 0x00 (0000ms, 0725ms total)
T19588 001:493 JLINK_WriteReg(R9, 0x20000160)  returns 0x00 (0000ms, 0725ms total)
T19588 001:493 JLINK_WriteReg(R10, 0x00000000)  returns 0x00 (0000ms, 0725ms total)
T19588 001:493 JLINK_WriteReg(R11, 0x00000000)  returns 0x00 (0000ms, 0725ms total)
T19588 001:493 JLINK_WriteReg(R12, 0x00000000)  returns 0x00 (0000ms, 0725ms total)
T19588 001:493 JLINK_WriteReg(R13 (SP), 0x20001000)  returns 0x00 (0000ms, 0725ms total)
T19588 001:493 JLINK_WriteReg(R14, 0x20000001)  returns 0x00 (0000ms, 0725ms total)
T19588 001:493 JLINK_WriteReg(R15 (PC), 0x200000F4)  returns 0x00 (0000ms, 0725ms total)
T19588 001:493 JLINK_WriteReg(XPSR, 0x01000000)  returns 0x00 (0000ms, 0725ms total)
T19588 001:493 JLINK_WriteReg(MSP, 0x20001000)  returns 0x00 (0000ms, 0725ms total)
T19588 001:493 JLINK_WriteReg(PSP, 0x20001000)  returns 0x00 (0000ms, 0725ms total)
T19588 001:493 JLINK_WriteReg(CFBP, 0x00000000)  returns 0x00 (0000ms, 0725ms total)
T19588 001:493 JLINK_SetBPEx(Addr = 0x20000000, Type = 0xFFFFFFF2)  returns 0x00000010 (0000ms, 0725ms total)
T19588 001:493 JLINK_Go() (0002ms, 0727ms total)
T19588 001:496 JLINK_IsHalted()  returns FALSE (0002ms, 0730ms total)
T19588 001:499 JLINK_IsHalted()  returns FALSE (0001ms, 0729ms total)
T19588 001:502 JLINK_IsHalted()  returns FALSE (0001ms, 0729ms total)
T19588 001:504 JLINK_IsHalted()  returns FALSE (0001ms, 0729ms total)
T19588 001:507 JLINK_IsHalted()  returns FALSE (0001ms, 0729ms total)
T19588 001:510 JLINK_IsHalted()  returns FALSE (0001ms, 0729ms total)
T19588 001:512 JLINK_IsHalted()  returns FALSE (0001ms, 0729ms total)
T19588 001:514 JLINK_IsHalted()  returns FALSE (0001ms, 0729ms total)
T19588 001:517 JLINK_IsHalted()  returns FALSE (0000ms, 0728ms total)
T19588 001:519 JLINK_IsHalted()  returns FALSE (0000ms, 0728ms total)
T19588 001:521 JLINK_IsHalted()  returns FALSE (0001ms, 0729ms total)
T19588 001:524 JLINK_IsHalted()  returns FALSE (0000ms, 0728ms total)
T19588 001:526 JLINK_IsHalted() -- CPU_ReadMem(2 bytes @ 0x20000000)  returns TRUE (0004ms, 0732ms total)
T19588 001:530 JLINK_ReadReg(R15 (PC))  returns 0x20000000 (0000ms, 0728ms total)
T19588 001:530 JLINK_ClrBPEx(BPHandle = 0x00000010)  returns 0x00 (0000ms, 0728ms total)
T19588 001:530 JLINK_ReadReg(R0)  returns 0x00000000 (0000ms, 0728ms total)
